T3404 2379:133 SEGGER J-Link V6.46 Log File (0001ms, 4760ms total)
T3404 2379:133 DLL Compiled: May 23 2019 17:49:56 (0001ms, 4760ms total)
T3404 2379:133 Logging started @ 2020-07-12 13:49 (0001ms, 4760ms total)
T3404 2379:134 JLINK_SetWarnOutHandler(...) (0000ms, 4760ms total)
T3404 2379:134 JLINK_OpenEx(...)
Firmware: J-Link V9 compiled May 17 2019 09:50:41
Hardware: V9.70
S/N: 20790416
Feature(s): RDI, FlashBP, FlashDL, JFlash, RDDI
TELNET listener socket opened on port 19021WEBSRV 
Starting webserver (0072ms, 4832ms total)
T3404 2379:134 WEBSRV Webserver running on local port 19080 (0072ms, 4832ms total)
T3404 2379:134   returns O.K. (0072ms, 4832ms total)
T3404 2379:206 JLINK_GetEmuCaps()  returns 0xB9FF7BBF (0000ms, 4832ms total)
T3404 2379:207 JLINK_TIF_GetAvailable(...) (0000ms, 4832ms total)
T3404 2379:207 JLINK_SetErrorOutHandler(...) (0000ms, 4832ms total)
T3404 2379:207 JLINK_ExecCommand("ProjectFile = "E:\ÁÒÂíÈË\FreeRTOS_test\PROJECT\JLinkSettings.ini"", ...).   returns 0x00 (0002ms, 4834ms total)
T3404 2379:213 JLINK_ExecCommand("Device = MK66FX1M0xxx18", ...). Device "MK66FX1M0XXX18" selected.  returns 0x00 (0010ms, 4844ms total)
T3404 2379:223 JLINK_ExecCommand("DisableConnectionTimeout", ...).   returns 0x01 (0000ms, 4844ms total)
T3404 2379:223 JLINK_GetHardwareVersion()  returns 0x17AE8 (0000ms, 4844ms total)
T3404 2379:223 JLINK_GetDLLVersion()  returns 64600 (0000ms, 4844ms total)
T3404 2379:223 JLINK_GetFirmwareString(...) (0000ms, 4844ms total)
T3404 2379:238 JLINK_GetDLLVersion()  returns 64600 (0000ms, 4844ms total)
T3404 2379:238 JLINK_GetCompileDateTime() (0000ms, 4844ms total)
T3404 2379:241 JLINK_GetFirmwareString(...) (0000ms, 4844ms total)
T3404 2379:245 JLINK_GetHardwareVersion()  returns 0x17AE8 (0000ms, 4844ms total)
T3404 2379:261 JLINK_TIF_Select(JLINKARM_TIF_JTAG)  returns 0x00 (0003ms, 4847ms total)
T3404 2379:264 JLINK_SetSpeed(5000) (0000ms, 4847ms total)
T3404 2379:264 JLINK_GetIdData(...)InitTarget() >0x2F8 JTAG>TotalIRLen = 4, IRPrint = 0x01 >0x30 JTAG> >0x30 JTAG>JTAG chain detection found 1 devices: #0 Id: 0x4BA00477, IRLen: 04, CoreSight JTAG-DPScanning AP map to find all available APs >0x78 JTAG> >0x48 JTAG> >0x40 JTAG> >0x40 JTAG> >0x48 JTAG> >0x40 JTAG> >0x40 JTAG> >0x48 JTAG> >0x40 JTAG>AP[2]: Stopped AP scan as end of AP map has been reachedAP[0]: AHB-AP (IDR: 0x24770011)AP[1]: JTAG-AP (IDR: 0x001C0000)
Iterating through AP map to find AHB-AP to use >0x78 JTAG> >0x48 JTAG> >0x48 JTAG> >0x70 JTAG> >0x40 JTAG> >0x30 JTAG> >0x40 JTAG> >0x40 JTAG>AP[0]: Core foundAP[0]: AHB-AP ROM base: 0xE00FF000 >0x40 JTAG> >0x40 JTAG> >0x30 JTAG> >0x40 JTAG> >0x40 JTAG>CPUID register: 0x410FC241. Implementer code: 0x41 (ARM)Found Cortex-M4 r0p1, Little endian. -- Max. mem block: 0x00010D70 -- CPU_ReadMem(4 bytes @ 0xE000EDF0) -- CPU_WriteMem(4 bytes @ 0xE000EDF0) -- CPU_ReadMem(4 bytes @ 0xE0002000)
FPUnit: 6 code (BP) slots and 2 literal slots -- CPU_ReadMem(4 bytes @ 0xE000EDFC) -- CPU_WriteMem(4 bytes @ 0xE000EDFC) -- CPU_ReadMem(4 bytes @ 0xE0001000) -- CPU_WriteMem(4 bytes @ 0xE0001000) -- CPU_ReadMem(4 bytes @ 0xE000ED88) -- CPU_WriteMem(4 bytes @ 0xE000ED88) -- CPU_ReadMem(4 bytes @ 0xE000ED88) -- CPU_WriteMem(4 bytes @ 0xE000ED88)CoreSight components:ROMTbl[0] @ E00FF000 -- CPU_ReadMem(16 bytes @ 0xE00FF000) -- CPU_ReadMem(16 bytes @ 0xE000EFF0) -- CPU_ReadMem(16 bytes @ 0xE000EFE0)
ROMTbl[0][0]: E000E000, CID: B105E00D, PID: 000BB00C SCS-M7 -- CPU_ReadMem(16 bytes @ 0xE0001FF0) -- CPU_ReadMem(16 bytes @ 0xE0001FE0)ROMTbl[0][1]: E0001000, CID: B105E00D, PID: 003BB002 DWT -- CPU_ReadMem(16 bytes @ 0xE0002FF0) -- CPU_ReadMem(16 bytes @ 0xE0002FE0)ROMTbl[0][2]: E0002000, CID: B105E00D, PID: 002BB003 FPB -- CPU_ReadMem(16 bytes @ 0xE0000FF0) -- CPU_ReadMem(16 bytes @ 0xE0000FE0)ROMTbl[0][3]: E0000000, CID: B105E00D, PID: 003BB001 ITM -- CPU_ReadMem(16 bytes @ 0xE00FF010)
 -- CPU_ReadMem(16 bytes @ 0xE0040FF0) -- CPU_ReadMem(16 bytes @ 0xE0040FE0)ROMTbl[0][4]: E0040000, CID: B105900D, PID: 000BB9A1 TPIU -- CPU_ReadMem(16 bytes @ 0xE0041FF0) -- CPU_ReadMem(16 bytes @ 0xE0041FE0)ROMTbl[0][5]: E0041000, CID: B105900D, PID: 000BB925 ETM -- CPU_ReadMem(16 bytes @ 0xE0042FF0) -- CPU_ReadMem(16 bytes @ 0xE0042FE0)ROMTbl[0][6]: E0042000, CID: B105900D, PID: 003BB907 ETB -- CPU_ReadMem(16 bytes @ 0xE0043FF0) -- CPU_ReadMem(16 bytes @ 0xE0043FE0)
ROMTbl[0][7]: E0043000, CID: B105900D, PID: 001BB908 CSTF -- CPU_ReadMem(16 bytes @ 0xE00FF020) ScanLen=4 NumDevices=1 aId[0]=0x4BA00477 aIrRead[0]=0 aScanLen[0]=0 aScanRead[0]=0 (0188ms, 5035ms total)
T3404 2379:452 JLINK_JTAG_GetDeviceID(DeviceIndex = 0)  returns 0x4BA00477 (0000ms, 5035ms total)
T3404 2379:452 JLINK_JTAG_GetDeviceInfo(DeviceIndex = 0)  returns 0x00 (0000ms, 5035ms total)
T3404 2379:452 JLINK_GetDLLVersion()  returns 64600 (0000ms, 5035ms total)
T3404 2379:452 JLINK_CORE_GetFound()  returns 0xE0000FF (0000ms, 5035ms total)
T3404 2379:452 JLINK_GetDebugInfo(0x100 = JLINKARM_ROM_TABLE_ADDR_INDEX) -- Value=0xE00FF000  returns 0x00 (0000ms, 5035ms total)
T3404 2379:459 JLINK_GetDebugInfo(0x100 = JLINKARM_ROM_TABLE_ADDR_INDEX) -- Value=0xE00FF000  returns 0x00 (0000ms, 5035ms total)
T3404 2379:459 JLINK_GetDebugInfo(0x101 = JLINKARM_DEBUG_INFO_ETM_ADDR_INDEX) -- Value=0xE0041000  returns 0x00 (0000ms, 5035ms total)
T3404 2379:459 JLINK_ReadMemEx(0xE0041FD0, 0x0020 Bytes, ..., Flags = 0x02000004) -- CPU_ReadMem(32 bytes @ 0xE0041FD0) - Data: 04 00 00 00 00 00 00 00 00 00 00 00 00 00 00 00 ...  returns 0x20 (0001ms, 5036ms total)
T3404 2379:460 JLINK_GetDebugInfo(0x102 = JLINKARM_DEBUG_INFO_MTB_ADDR_INDEX) -- Value=0x00000000  returns 0x00 (0000ms, 5036ms total)
T3404 2379:460 JLINK_GetDebugInfo(0x103 = JLINKARM_DEBUG_INFO_TPIU_ADDR_INDEX) -- Value=0xE0040000  returns 0x00 (0000ms, 5036ms total)
T3404 2379:460 JLINK_GetDebugInfo(0x104 = JLINKARM_DEBUG_INFO_ITM_ADDR_INDEX) -- Value=0xE0000000  returns 0x00 (0000ms, 5036ms total)
T3404 2379:460 JLINK_GetDebugInfo(0x105 = JLINKARM_DEBUG_INFO_DWT_ADDR_INDEX) -- Value=0xE0001000  returns 0x00 (0000ms, 5036ms total)
T3404 2379:460 JLINK_GetDebugInfo(0x106 = JLINKARM_DEBUG_INFO_FPB_ADDR_INDEX) -- Value=0xE0002000  returns 0x00 (0001ms, 5037ms total)
T3404 2379:461 JLINK_GetDebugInfo(0x107 = JLINKARM_DEBUG_INFO_NVIC_ADDR_INDEX) -- Value=0xE000E000  returns 0x00 (0000ms, 5037ms total)
T3404 2379:461 JLINK_GetDebugInfo(0x10C = JLINKARM_DEBUG_INFO_DBG_ADDR_INDEX) -- Value=0xE000EDF0  returns 0x00 (0000ms, 5037ms total)
T3404 2379:461 JLINK_GetDebugInfo(0x01 = Unknown) -- Value=0x00000001  returns 0x00 (0000ms, 5037ms total)
T3404 2379:461 JLINK_ReadMemU32(0xE000ED00, 0x0001 Items, ...) -- CPU_ReadMem(4 bytes @ 0xE000ED00) - Data: 41 C2 0F 41  returns 1 (0000ms, 5037ms total)
T3404 2379:461 JLINK_GetDebugInfo(0x10F = JLINKARM_DEBUG_INFO_HAS_CORTEX_M_SECURITY_EXT_INDEX) -- Value=0x00000000  returns 0x00 (0000ms, 5037ms total)
T3404 2379:461 JLINK_SetResetType(JLINKARM_CM3_RESET_TYPE_NORMAL)  returns JLINKARM_CM3_RESET_TYPE_NORMAL (0000ms, 5037ms total)
T3404 2379:461 JLINK_Reset() -- CPU is running -- CPU_WriteMem(4 bytes @ 0xE000EDF0) -- CPU is running -- CPU_WriteMem(4 bytes @ 0xE000EDFC)Reset: Halt core after reset via DEMCR.VC_CORERESET.Reset: Reset device via AIRCR.SYSRESETREQ. -- CPU is running -- CPU_WriteMem(4 bytes @ 0xE000ED0C) -- CPU_ReadMem(4 bytes @ 0xE000EDF0) -- CPU_ReadMem(4 bytes @ 0xE000EDF0) -- CPU is running -- CPU_WriteMem(4 bytes @ 0xE000EDF0) -- CPU is running -- CPU_WriteMem(4 bytes @ 0xE000EDFC)
 -- CPU_ReadMem(4 bytes @ 0xE000EDF0) -- CPU_WriteMem(4 bytes @ 0xE000EDFC) -- CPU_WriteMem(4 bytes @ 0xE0001028) -- CPU_WriteMem(4 bytes @ 0xE0001038) -- CPU_WriteMem(4 bytes @ 0xE0001048) -- CPU_WriteMem(4 bytes @ 0xE0001058)AfterResetTarget() -- CPU_WriteMem(4 bytes @ 0xE0002000) -- CPU_ReadMem(4 bytes @ 0xE000EDFC) -- CPU_ReadMem(4 bytes @ 0xE0001000) (0135ms, 5172ms total)
T3404 2379:596 JLINK_Halt()  returns 0x00 (0000ms, 5172ms total)
T3404 2379:596 JLINK_ReadMemU32(0xE000EDF0, 0x0001 Items, ...) -- CPU_ReadMem(4 bytes @ 0xE000EDF0) - Data: 0B 00 03 00  returns 1 (0000ms, 5172ms total)
T3404 2379:596 JLINK_WriteU32(0xE000EDF0, 0xA05F0003) -- CPU_WriteMem(4 bytes @ 0xE000EDF0)  returns 0 (0001ms, 5173ms total)
T3404 2379:597 JLINK_WriteU32(0xE000EDFC, 0x01000000) -- CPU_WriteMem(4 bytes @ 0xE000EDFC)  returns 0 (0001ms, 5174ms total)
T3404 2379:613 JLINK_GetHWStatus(...)  returns 0x00 (0001ms, 5175ms total)
T3404 2379:621 JLINK_GetNumBPUnits(Type = 0xFFFFFF00)  returns 0x06 (0000ms, 5175ms total)
T3404 2379:621 JLINK_GetNumBPUnits(Type = 0xF0)  returns 0x2000 (0000ms, 5175ms total)
T3404 2379:621 JLINK_GetNumWPUnits()  returns 0x04 (0000ms, 5175ms total)
T3404 2379:635 JLINK_GetSpeed()  returns 0x1388 (0000ms, 5175ms total)
T3404 2379:644 JLINK_ReadMemU32(0xE000E004, 0x0001 Items, ...) -- CPU_ReadMem(4 bytes @ 0xE000E004) - Data: 03 00 00 00  returns 1 (0001ms, 5176ms total)
T3404 2379:645 JLINK_ReadMemU32(0xE000E004, 0x0001 Items, ...) -- CPU_ReadMem(4 bytes @ 0xE000E004) - Data: 03 00 00 00  returns 1 (0000ms, 5176ms total)
T3404 2379:645 JLINK_WriteMemEx(0xE0001000, 0x001C Bytes, ..., Flags = 0x02000004) - Data: 01 00 00 00 00 00 00 00 00 00 00 00 00 00 00 00 ... -- CPU_WriteMem(28 bytes @ 0xE0001000)  returns 0x1C (0001ms, 5177ms total)
T3404 2379:647 JLINK_Halt()  returns 0x00 (0000ms, 5178ms total)
T3404 2379:647 JLINK_IsHalted()  returns TRUE (0000ms, 5178ms total)
T3404 2379:649 JLINK_WriteMem(0x20000000, 0x0440 Bytes, ...) - Data: 00 BE 0A E0 0D 78 2D 06 68 40 08 24 40 00 00 D3 ... -- CPU_WriteMem(1088 bytes @ 0x20000000)  returns 0x440 (0004ms, 5182ms total)
T3404 2379:653 JLINK_WriteReg(R0, 0x00000000)  returns 0x00 (0000ms, 5182ms total)
T3404 2379:653 JLINK_WriteReg(R1, 0x00B71B00)  returns 0x00 (0001ms, 5183ms total)
T3404 2379:654 JLINK_WriteReg(R2, 0x00000001)  returns 0x00 (0000ms, 5183ms total)
T3404 2379:654 JLINK_WriteReg(R3, 0x00000000)  returns 0x00 (0000ms, 5183ms total)
T3404 2379:654 JLINK_WriteReg(R4, 0x00000000)  returns 0x00 (0000ms, 5183ms total)
T3404 2379:654 JLINK_WriteReg(R5, 0x00000000)  returns 0x00 (0000ms, 5183ms total)
T3404 2379:654 JLINK_WriteReg(R6, 0x00000000)  returns 0x00 (0000ms, 5183ms total)
T3404 2379:654 JLINK_WriteReg(R7, 0x00000000)  returns 0x00 (0000ms, 5183ms total)
T3404 2379:654 JLINK_WriteReg(R8, 0x00000000)  returns 0x00 (0000ms, 5183ms total)
T3404 2379:654 JLINK_WriteReg(R9, 0x20000438)  returns 0x00 (0000ms, 5183ms total)
T3404 2379:654 JLINK_WriteReg(R10, 0x00000000)  returns 0x00 (0000ms, 5183ms total)
T3404 2379:654 JLINK_WriteReg(R11, 0x00000000)  returns 0x00 (0000ms, 5183ms total)
T3404 2379:654 JLINK_WriteReg(R12, 0x00000000)  returns 0x00 (0000ms, 5183ms total)
T3404 2379:654 JLINK_WriteReg(R13 (SP), 0x20001000)  returns 0x00 (0000ms, 5183ms total)
T3404 2379:654 JLINK_WriteReg(R14, 0x20000001)  returns 0x00 (0000ms, 5183ms total)
T3404 2379:654 JLINK_WriteReg(R15 (PC), 0x20000020)  returns 0x00 (0000ms, 5183ms total)
T3404 2379:654 JLINK_WriteReg(XPSR, 0x01000000)  returns 0x00 (0000ms, 5183ms total)
T3404 2379:654 JLINK_WriteReg(MSP, 0x20001000)  returns 0x00 (0000ms, 5183ms total)
T3404 2379:654 JLINK_WriteReg(PSP, 0x20001000)  returns 0x00 (0000ms, 5183ms total)
T3404 2379:654 JLINK_WriteReg(CFBP, 0x00000000)  returns 0x00 (0000ms, 5183ms total)
T3404 2379:654 JLINK_SetBPEx(Addr = 0x20000000, Type = 0xFFFFFFF2) -- CPU_ReadMem(2 bytes @ 0x20000000)  returns 0x00000001 (0001ms, 5184ms total)
T3404 2379:655 JLINK_Go() -- CPU_WriteMem(2 bytes @ 0x20000000) -- CPU_ReadMem(4 bytes @ 0xE0001000) -- CPU_WriteMem(4 bytes @ 0xE0002008) -- CPU_WriteMem(4 bytes @ 0xE000200C) -- CPU_WriteMem(4 bytes @ 0xE0002010) -- CPU_WriteMem(4 bytes @ 0xE0002014) -- CPU_WriteMem(4 bytes @ 0xE0002018) -- CPU_WriteMem(4 bytes @ 0xE000201C) -- CPU_WriteMem(4 bytes @ 0xE0001004) (0005ms, 5189ms total)
T3404 2379:660 JLINK_IsHalted() -- CPU_ReadMem(2 bytes @ 0x20000000)  returns TRUE (0003ms, 5192ms total)
T3404 2379:663 JLINK_ReadReg(R15 (PC))  returns 0x20000000 (0000ms, 5189ms total)
T3404 2379:663 JLINK_ClrBPEx(BPHandle = 0x00000001)  returns 0x00 (0000ms, 5189ms total)
T3404 2379:663 JLINK_ReadReg(R0)  returns 0x00000000 (0000ms, 5189ms total)
T3404 2379:664 JLINK_WriteReg(R0, 0x00000000)  returns 0x00 (0000ms, 5189ms total)
T3404 2379:664 JLINK_WriteReg(R1, 0x00001000)  returns 0x00 (0000ms, 5189ms total)
T3404 2379:664 JLINK_WriteReg(R2, 0x000000FF)  returns 0x00 (0000ms, 5189ms total)
T3404 2379:664 JLINK_WriteReg(R3, 0x00000000)  returns 0x00 (0000ms, 5189ms total)
T3404 2379:664 JLINK_WriteReg(R4, 0x00000000)  returns 0x00 (0000ms, 5189ms total)
T3404 2379:664 JLINK_WriteReg(R5, 0x00000000)  returns 0x00 (0000ms, 5189ms total)
T3404 2379:664 JLINK_WriteReg(R6, 0x00000000)  returns 0x00 (0000ms, 5189ms total)
T3404 2379:664 JLINK_WriteReg(R7, 0x00000000)  returns 0x00 (0000ms, 5189ms total)
T3404 2379:664 JLINK_WriteReg(R8, 0x00000000)  returns 0x00 (0000ms, 5189ms total)
T3404 2379:664 JLINK_WriteReg(R9, 0x20000438)  returns 0x00 (0000ms, 5189ms total)
T3404 2379:664 JLINK_WriteReg(R10, 0x00000000)  returns 0x00 (0000ms, 5189ms total)
T3404 2379:664 JLINK_WriteReg(R11, 0x00000000)  returns 0x00 (0000ms, 5189ms total)
T3404 2379:664 JLINK_WriteReg(R12, 0x00000000)  returns 0x00 (0000ms, 5189ms total)
T3404 2379:664 JLINK_WriteReg(R13 (SP), 0x20001000)  returns 0x00 (0000ms, 5189ms total)
T3404 2379:664 JLINK_WriteReg(R14, 0x20000001)  returns 0x00 (0000ms, 5189ms total)
T3404 2379:664 JLINK_WriteReg(R15 (PC), 0x20000074)  returns 0x00 (0000ms, 5189ms total)
T3404 2379:664 JLINK_WriteReg(XPSR, 0x01000000)  returns 0x00 (0000ms, 5189ms total)
T3404 2379:664 JLINK_WriteReg(MSP, 0x20001000)  returns 0x00 (0000ms, 5189ms total)
T3404 2379:664 JLINK_WriteReg(PSP, 0x20001000)  returns 0x00 (0000ms, 5189ms total)
T3404 2379:664 JLINK_WriteReg(CFBP, 0x00000000)  returns 0x00 (0000ms, 5189ms total)
T3404 2379:664 JLINK_SetBPEx(Addr = 0x20000000, Type = 0xFFFFFFF2)  returns 0x00000002 (0000ms, 5189ms total)
T3404 2379:664 JLINK_Go() -- CPU_ReadMem(4 bytes @ 0xE0001000) (0004ms, 5193ms total)
T3404 2379:668 JLINK_IsHalted() -- CPU_ReadMem(2 bytes @ 0x20000000)  returns TRUE (0003ms, 5196ms total)
T3404 2379:671 JLINK_ReadReg(R15 (PC))  returns 0x20000000 (0000ms, 5193ms total)
T3404 2379:671 JLINK_ClrBPEx(BPHandle = 0x00000002)  returns 0x00 (0000ms, 5193ms total)
T3404 2379:671 JLINK_ReadReg(R0)  returns 0x00000001 (0000ms, 5193ms total)
T3404 2379:671 JLINK_WriteReg(R0, 0x00000000)  returns 0x00 (0000ms, 5193ms total)
T3404 2379:671 JLINK_WriteReg(R1, 0x00001000)  returns 0x00 (0000ms, 5193ms total)
T3404 2379:671 JLINK_WriteReg(R2, 0x000000FF)  returns 0x00 (0000ms, 5193ms total)
T3404 2379:671 JLINK_WriteReg(R3, 0x00000000)  returns 0x00 (0000ms, 5193ms total)
T3404 2379:671 JLINK_WriteReg(R4, 0x00000000)  returns 0x00 (0000ms, 5193ms total)
T3404 2379:671 JLINK_WriteReg(R5, 0x00000000)  returns 0x00 (0000ms, 5193ms total)
T3404 2379:671 JLINK_WriteReg(R6, 0x00000000)  returns 0x00 (0000ms, 5193ms total)
T3404 2379:671 JLINK_WriteReg(R7, 0x00000000)  returns 0x00 (0000ms, 5193ms total)
T3404 2379:671 JLINK_WriteReg(R8, 0x00000000)  returns 0x00 (0000ms, 5193ms total)
T3404 2379:671 JLINK_WriteReg(R9, 0x20000438)  returns 0x00 (0000ms, 5193ms total)
T3404 2379:671 JLINK_WriteReg(R10, 0x00000000)  returns 0x00 (0000ms, 5193ms total)
T3404 2379:671 JLINK_WriteReg(R11, 0x00000000)  returns 0x00 (0000ms, 5193ms total)
T3404 2379:671 JLINK_WriteReg(R12, 0x00000000)  returns 0x00 (0000ms, 5193ms total)
T3404 2379:671 JLINK_WriteReg(R13 (SP), 0x20001000)  returns 0x00 (0000ms, 5193ms total)
T3404 2379:671 JLINK_WriteReg(R14, 0x20000001)  returns 0x00 (0000ms, 5193ms total)
T3404 2379:671 JLINK_WriteReg(R15 (PC), 0x200000CA)  returns 0x00 (0000ms, 5193ms total)
T3404 2379:671 JLINK_WriteReg(XPSR, 0x01000000)  returns 0x00 (0000ms, 5193ms total)
T3404 2379:671 JLINK_WriteReg(MSP, 0x20001000)  returns 0x00 (0000ms, 5193ms total)
T3404 2379:671 JLINK_WriteReg(PSP, 0x20001000)  returns 0x00 (0000ms, 5193ms total)
T3404 2379:671 JLINK_WriteReg(CFBP, 0x00000000)  returns 0x00 (0000ms, 5193ms total)
T3404 2379:671 JLINK_SetBPEx(Addr = 0x20000000, Type = 0xFFFFFFF2)  returns 0x00000003 (0000ms, 5193ms total)
T3404 2379:671 JLINK_Go() -- CPU_ReadMem(4 bytes @ 0xE0001000) (0004ms, 5197ms total)
T3404 2379:675 JLINK_IsHalted()  returns FALSE (0000ms, 5197ms total)
T3404 2379:757 JLINK_IsHalted() -- CPU_ReadMem(2 bytes @ 0x20000000)  returns TRUE (0004ms, 5201ms total)
T3404 2379:761 JLINK_ReadReg(R15 (PC))  returns 0x20000000 (0001ms, 5198ms total)
T3404 2379:762 JLINK_ClrBPEx(BPHandle = 0x00000003)  returns 0x00 (0000ms, 5198ms total)
T3404 2379:762 JLINK_ReadReg(R0)  returns 0x00000000 (0000ms, 5198ms total)
T3404 2379:762 JLINK_WriteReg(R0, 0x00001000)  returns 0x00 (0000ms, 5198ms total)
T3404 2379:762 JLINK_WriteReg(R1, 0x00001000)  returns 0x00 (0000ms, 5198ms total)
T3404 2379:762 JLINK_WriteReg(R2, 0x000000FF)  returns 0x00 (0000ms, 5198ms total)
T3404 2379:762 JLINK_WriteReg(R3, 0x00000000)  returns 0x00 (0000ms, 5198ms total)
T3404 2379:762 JLINK_WriteReg(R4, 0x00000000)  returns 0x00 (0000ms, 5198ms total)
T3404 2379:762 JLINK_WriteReg(R5, 0x00000000)  returns 0x00 (0000ms, 5198ms total)
T3404 2379:762 JLINK_WriteReg(R6, 0x00000000)  returns 0x00 (0000ms, 5198ms total)
T3404 2379:762 JLINK_WriteReg(R7, 0x00000000)  returns 0x00 (0000ms, 5198ms total)
T3404 2379:762 JLINK_WriteReg(R8, 0x00000000)  returns 0x00 (0000ms, 5198ms total)
T3404 2379:762 JLINK_WriteReg(R9, 0x20000438)  returns 0x00 (0000ms, 5198ms total)
T3404 2379:762 JLINK_WriteReg(R10, 0x00000000)  returns 0x00 (0000ms, 5198ms total)
T3404 2379:762 JLINK_WriteReg(R11, 0x00000000)  returns 0x00 (0001ms, 5199ms total)
T3404 2379:763 JLINK_WriteReg(R12, 0x00000000)  returns 0x00 (0000ms, 5199ms total)
T3404 2379:763 JLINK_WriteReg(R13 (SP), 0x20001000)  returns 0x00 (0000ms, 5199ms total)
T3404 2379:763 JLINK_WriteReg(R14, 0x20000001)  returns 0x00 (0000ms, 5199ms total)
T3404 2379:763 JLINK_WriteReg(R15 (PC), 0x20000074)  returns 0x00 (0000ms, 5199ms total)
T3404 2379:763 JLINK_WriteReg(XPSR, 0x01000000)  returns 0x00 (0000ms, 5199ms total)
T3404 2379:763 JLINK_WriteReg(MSP, 0x20001000)  returns 0x00 (0000ms, 5199ms total)
T3404 2379:763 JLINK_WriteReg(PSP, 0x20001000)  returns 0x00 (0000ms, 5199ms total)
T3404 2379:763 JLINK_WriteReg(CFBP, 0x00000000)  returns 0x00 (0000ms, 5199ms total)
T3404 2379:763 JLINK_SetBPEx(Addr = 0x20000000, Type = 0xFFFFFFF2)  returns 0x00000004 (0000ms, 5199ms total)
T3404 2379:763 JLINK_Go() -- CPU_ReadMem(4 bytes @ 0xE0001000) (0004ms, 5203ms total)
T3404 2379:767 JLINK_IsHalted() -- CPU_ReadMem(2 bytes @ 0x20000000)  returns TRUE (0003ms, 5206ms total)
T3404 2379:770 JLINK_ReadReg(R15 (PC))  returns 0x20000000 (0000ms, 5203ms total)
T3404 2379:770 JLINK_ClrBPEx(BPHandle = 0x00000004)  returns 0x00 (0000ms, 5203ms total)
T3404 2379:770 JLINK_ReadReg(R0)  returns 0x00000001 (0000ms, 5203ms total)
T3404 2379:770 JLINK_WriteReg(R0, 0x00001000)  returns 0x00 (0000ms, 5203ms total)
T3404 2379:770 JLINK_WriteReg(R1, 0x00001000)  returns 0x00 (0000ms, 5203ms total)
T3404 2379:770 JLINK_WriteReg(R2, 0x000000FF)  returns 0x00 (0000ms, 5203ms total)
T3404 2379:770 JLINK_WriteReg(R3, 0x00000000)  returns 0x00 (0000ms, 5203ms total)
T3404 2379:770 JLINK_WriteReg(R4, 0x00000000)  returns 0x00 (0000ms, 5203ms total)
T3404 2379:770 JLINK_WriteReg(R5, 0x00000000)  returns 0x00 (0000ms, 5203ms total)
T3404 2379:770 JLINK_WriteReg(R6, 0x00000000)  returns 0x00 (0000ms, 5203ms total)
T3404 2379:770 JLINK_WriteReg(R7, 0x00000000)  returns 0x00 (0000ms, 5203ms total)
T3404 2379:770 JLINK_WriteReg(R8, 0x00000000)  returns 0x00 (0000ms, 5203ms total)
T3404 2379:770 JLINK_WriteReg(R9, 0x20000438)  returns 0x00 (0000ms, 5203ms total)
T3404 2379:770 JLINK_WriteReg(R10, 0x00000000)  returns 0x00 (0000ms, 5203ms total)
T3404 2379:770 JLINK_WriteReg(R11, 0x00000000)  returns 0x00 (0000ms, 5203ms total)
T3404 2379:770 JLINK_WriteReg(R12, 0x00000000)  returns 0x00 (0000ms, 5203ms total)
T3404 2379:770 JLINK_WriteReg(R13 (SP), 0x20001000)  returns 0x00 (0000ms, 5203ms total)
T3404 2379:770 JLINK_WriteReg(R14, 0x20000001)  returns 0x00 (0000ms, 5203ms total)
T3404 2379:770 JLINK_WriteReg(R15 (PC), 0x200000CA)  returns 0x00 (0000ms, 5203ms total)
T3404 2379:770 JLINK_WriteReg(XPSR, 0x01000000)  returns 0x00 (0000ms, 5203ms total)
T3404 2379:770 JLINK_WriteReg(MSP, 0x20001000)  returns 0x00 (0001ms, 5204ms total)
T3404 2379:771 JLINK_WriteReg(PSP, 0x20001000)  returns 0x00 (0000ms, 5204ms total)
T3404 2379:771 JLINK_WriteReg(CFBP, 0x00000000)  returns 0x00 (0000ms, 5204ms total)
T3404 2379:771 JLINK_SetBPEx(Addr = 0x20000000, Type = 0xFFFFFFF2)  returns 0x00000005 (0000ms, 5204ms total)
T3404 2379:771 JLINK_Go() -- CPU_ReadMem(4 bytes @ 0xE0001000) (0003ms, 5207ms total)
T3404 2379:774 JLINK_IsHalted()  returns FALSE (0000ms, 5207ms total)
T3404 2379:778 JLINK_IsHalted()  returns FALSE (0000ms, 5207ms total)
T3404 2379:780 JLINK_IsHalted() -- CPU_ReadMem(2 bytes @ 0x20000000)  returns TRUE (0003ms, 5210ms total)
T3404 2379:783 JLINK_ReadReg(R15 (PC))  returns 0x20000000 (0000ms, 5207ms total)
T3404 2379:783 JLINK_ClrBPEx(BPHandle = 0x00000005)  returns 0x00 (0000ms, 5207ms total)
T3404 2379:783 JLINK_ReadReg(R0)  returns 0x00000000 (0000ms, 5207ms total)
T3404 2379:784 JLINK_WriteReg(R0, 0x00002000)  returns 0x00 (0000ms, 5207ms total)
T3404 2379:784 JLINK_WriteReg(R1, 0x00001000)  returns 0x00 (0000ms, 5207ms total)
T3404 2379:784 JLINK_WriteReg(R2, 0x000000FF)  returns 0x00 (0000ms, 5207ms total)
T3404 2379:784 JLINK_WriteReg(R3, 0x00000000)  returns 0x00 (0000ms, 5207ms total)
T3404 2379:784 JLINK_WriteReg(R4, 0x00000000)  returns 0x00 (0000ms, 5207ms total)
T3404 2379:784 JLINK_WriteReg(R5, 0x00000000)  returns 0x00 (0000ms, 5207ms total)
T3404 2379:784 JLINK_WriteReg(R6, 0x00000000)  returns 0x00 (0000ms, 5207ms total)
T3404 2379:784 JLINK_WriteReg(R7, 0x00000000)  returns 0x00 (0000ms, 5207ms total)
T3404 2379:784 JLINK_WriteReg(R8, 0x00000000)  returns 0x00 (0000ms, 5207ms total)
T3404 2379:784 JLINK_WriteReg(R9, 0x20000438)  returns 0x00 (0000ms, 5207ms total)
T3404 2379:784 JLINK_WriteReg(R10, 0x00000000)  returns 0x00 (0000ms, 5207ms total)
T3404 2379:784 JLINK_WriteReg(R11, 0x00000000)  returns 0x00 (0000ms, 5207ms total)
T3404 2379:784 JLINK_WriteReg(R12, 0x00000000)  returns 0x00 (0000ms, 5207ms total)
T3404 2379:784 JLINK_WriteReg(R13 (SP), 0x20001000)  returns 0x00 (0000ms, 5207ms total)
T3404 2379:784 JLINK_WriteReg(R14, 0x20000001)  returns 0x00 (0000ms, 5207ms total)
T3404 2379:784 JLINK_WriteReg(R15 (PC), 0x20000074)  returns 0x00 (0000ms, 5207ms total)
T3404 2379:784 JLINK_WriteReg(XPSR, 0x01000000)  returns 0x00 (0000ms, 5207ms total)
T3404 2379:784 JLINK_WriteReg(MSP, 0x20001000)  returns 0x00 (0000ms, 5207ms total)
T3404 2379:784 JLINK_WriteReg(PSP, 0x20001000)  returns 0x00 (0000ms, 5207ms total)
T3404 2379:784 JLINK_WriteReg(CFBP, 0x00000000)  returns 0x00 (0000ms, 5207ms total)
T3404 2379:784 JLINK_SetBPEx(Addr = 0x20000000, Type = 0xFFFFFFF2)  returns 0x00000006 (0000ms, 5207ms total)
T3404 2379:784 JLINK_Go() -- CPU_ReadMem(4 bytes @ 0xE0001000) (0003ms, 5210ms total)
T3404 2379:787 JLINK_IsHalted() -- CPU_ReadMem(2 bytes @ 0x20000000)  returns TRUE (0003ms, 5213ms total)
T3404 2379:790 JLINK_ReadReg(R15 (PC))  returns 0x20000000 (0000ms, 5210ms total)
T3404 2379:790 JLINK_ClrBPEx(BPHandle = 0x00000006)  returns 0x00 (0000ms, 5210ms total)
T3404 2379:790 JLINK_ReadReg(R0)  returns 0x00000001 (0000ms, 5210ms total)
T3404 2379:791 JLINK_WriteReg(R0, 0x00002000)  returns 0x00 (0000ms, 5210ms total)
T3404 2379:791 JLINK_WriteReg(R1, 0x00001000)  returns 0x00 (0000ms, 5210ms total)
T3404 2379:791 JLINK_WriteReg(R2, 0x000000FF)  returns 0x00 (0000ms, 5210ms total)
T3404 2379:791 JLINK_WriteReg(R3, 0x00000000)  returns 0x00 (0000ms, 5210ms total)
T3404 2379:791 JLINK_WriteReg(R4, 0x00000000)  returns 0x00 (0000ms, 5210ms total)
T3404 2379:791 JLINK_WriteReg(R5, 0x00000000)  returns 0x00 (0000ms, 5210ms total)
T3404 2379:791 JLINK_WriteReg(R6, 0x00000000)  returns 0x00 (0000ms, 5210ms total)
T3404 2379:791 JLINK_WriteReg(R7, 0x00000000)  returns 0x00 (0000ms, 5210ms total)
T3404 2379:791 JLINK_WriteReg(R8, 0x00000000)  returns 0x00 (0000ms, 5210ms total)
T3404 2379:791 JLINK_WriteReg(R9, 0x20000438)  returns 0x00 (0000ms, 5210ms total)
T3404 2379:791 JLINK_WriteReg(R10, 0x00000000)  returns 0x00 (0000ms, 5210ms total)
T3404 2379:791 JLINK_WriteReg(R11, 0x00000000)  returns 0x00 (0000ms, 5210ms total)
T3404 2379:791 JLINK_WriteReg(R12, 0x00000000)  returns 0x00 (0000ms, 5210ms total)
T3404 2379:791 JLINK_WriteReg(R13 (SP), 0x20001000)  returns 0x00 (0000ms, 5210ms total)
T3404 2379:791 JLINK_WriteReg(R14, 0x20000001)  returns 0x00 (0000ms, 5210ms total)
T3404 2379:791 JLINK_WriteReg(R15 (PC), 0x200000CA)  returns 0x00 (0000ms, 5210ms total)
T3404 2379:791 JLINK_WriteReg(XPSR, 0x01000000)  returns 0x00 (0000ms, 5210ms total)
T3404 2379:791 JLINK_WriteReg(MSP, 0x20001000)  returns 0x00 (0000ms, 5210ms total)
T3404 2379:791 JLINK_WriteReg(PSP, 0x20001000)  returns 0x00 (0000ms, 5210ms total)
T3404 2379:791 JLINK_WriteReg(CFBP, 0x00000000)  returns 0x00 (0000ms, 5210ms total)
T3404 2379:791 JLINK_SetBPEx(Addr = 0x20000000, Type = 0xFFFFFFF2)  returns 0x00000007 (0000ms, 5210ms total)
T3404 2379:791 JLINK_Go() -- CPU_ReadMem(4 bytes @ 0xE0001000) (0003ms, 5213ms total)
T3404 2379:794 JLINK_IsHalted()  returns FALSE (0001ms, 5214ms total)
T3404 2379:803 JLINK_IsHalted() -- CPU_ReadMem(2 bytes @ 0x20000000)  returns TRUE (0005ms, 5218ms total)
T3404 2379:808 JLINK_ReadReg(R15 (PC))  returns 0x20000000 (0001ms, 5214ms total)
T3404 2379:809 JLINK_ClrBPEx(BPHandle = 0x00000007)  returns 0x00 (0000ms, 5214ms total)
T3404 2379:809 JLINK_ReadReg(R0)  returns 0x00000000 (0000ms, 5214ms total)
T3404 2379:809 JLINK_WriteReg(R0, 0x00003000)  returns 0x00 (0000ms, 5214ms total)
T3404 2379:809 JLINK_WriteReg(R1, 0x00001000)  returns 0x00 (0000ms, 5214ms total)
T3404 2379:809 JLINK_WriteReg(R2, 0x000000FF)  returns 0x00 (0000ms, 5214ms total)
T3404 2379:809 JLINK_WriteReg(R3, 0x00000000)  returns 0x00 (0000ms, 5214ms total)
T3404 2379:809 JLINK_WriteReg(R4, 0x00000000)  returns 0x00 (0001ms, 5215ms total)
T3404 2379:810 JLINK_WriteReg(R5, 0x00000000)  returns 0x00 (0000ms, 5215ms total)
T3404 2379:810 JLINK_WriteReg(R6, 0x00000000)  returns 0x00 (0000ms, 5215ms total)
T3404 2379:810 JLINK_WriteReg(R7, 0x00000000)  returns 0x00 (0000ms, 5215ms total)
T3404 2379:810 JLINK_WriteReg(R8, 0x00000000)  returns 0x00 (0000ms, 5215ms total)
T3404 2379:810 JLINK_WriteReg(R9, 0x20000438)  returns 0x00 (0000ms, 5215ms total)
T3404 2379:810 JLINK_WriteReg(R10, 0x00000000)  returns 0x00 (0000ms, 5215ms total)
T3404 2379:810 JLINK_WriteReg(R11, 0x00000000)  returns 0x00 (0000ms, 5215ms total)
T3404 2379:810 JLINK_WriteReg(R12, 0x00000000)  returns 0x00 (0000ms, 5215ms total)
T3404 2379:810 JLINK_WriteReg(R13 (SP), 0x20001000)  returns 0x00 (0000ms, 5215ms total)
T3404 2379:810 JLINK_WriteReg(R14, 0x20000001)  returns 0x00 (0000ms, 5215ms total)
T3404 2379:810 JLINK_WriteReg(R15 (PC), 0x20000074)  returns 0x00 (0000ms, 5215ms total)
T3404 2379:810 JLINK_WriteReg(XPSR, 0x01000000)  returns 0x00 (0000ms, 5215ms total)
T3404 2379:810 JLINK_WriteReg(MSP, 0x20001000)  returns 0x00 (0000ms, 5215ms total)
T3404 2379:810 JLINK_WriteReg(PSP, 0x20001000)  returns 0x00 (0000ms, 5215ms total)
T3404 2379:810 JLINK_WriteReg(CFBP, 0x00000000)  returns 0x00 (0000ms, 5215ms total)
T3404 2379:810 JLINK_SetBPEx(Addr = 0x20000000, Type = 0xFFFFFFF2)  returns 0x00000008 (0000ms, 5215ms total)
T3404 2379:810 JLINK_Go() -- CPU_ReadMem(4 bytes @ 0xE0001000) (0005ms, 5220ms total)
T3404 2379:815 JLINK_IsHalted() -- CPU_ReadMem(2 bytes @ 0x20000000)  returns TRUE (0003ms, 5223ms total)
T3404 2379:818 JLINK_ReadReg(R15 (PC))  returns 0x20000000 (0000ms, 5220ms total)
T3404 2379:818 JLINK_ClrBPEx(BPHandle = 0x00000008)  returns 0x00 (0000ms, 5220ms total)
T3404 2379:818 JLINK_ReadReg(R0)  returns 0x00000001 (0000ms, 5220ms total)
T3404 2379:818 JLINK_WriteReg(R0, 0x00003000)  returns 0x00 (0000ms, 5220ms total)
T3404 2379:818 JLINK_WriteReg(R1, 0x00001000)  returns 0x00 (0000ms, 5220ms total)
T3404 2379:818 JLINK_WriteReg(R2, 0x000000FF)  returns 0x00 (0000ms, 5220ms total)
T3404 2379:818 JLINK_WriteReg(R3, 0x00000000)  returns 0x00 (0000ms, 5220ms total)
T3404 2379:818 JLINK_WriteReg(R4, 0x00000000)  returns 0x00 (0000ms, 5220ms total)
T3404 2379:819 JLINK_WriteReg(R5, 0x00000000)  returns 0x00 (0000ms, 5220ms total)
T3404 2379:819 JLINK_WriteReg(R6, 0x00000000)  returns 0x00 (0000ms, 5220ms total)
T3404 2379:819 JLINK_WriteReg(R7, 0x00000000)  returns 0x00 (0000ms, 5220ms total)
T3404 2379:819 JLINK_WriteReg(R8, 0x00000000)  returns 0x00 (0000ms, 5220ms total)
T3404 2379:819 JLINK_WriteReg(R9, 0x20000438)  returns 0x00 (0000ms, 5220ms total)
T3404 2379:819 JLINK_WriteReg(R10, 0x00000000)  returns 0x00 (0000ms, 5220ms total)
T3404 2379:819 JLINK_WriteReg(R11, 0x00000000)  returns 0x00 (0000ms, 5220ms total)
T3404 2379:819 JLINK_WriteReg(R12, 0x00000000)  returns 0x00 (0000ms, 5220ms total)
T3404 2379:819 JLINK_WriteReg(R13 (SP), 0x20001000)  returns 0x00 (0000ms, 5220ms total)
T3404 2379:819 JLINK_WriteReg(R14, 0x20000001)  returns 0x00 (0000ms, 5220ms total)
T3404 2379:819 JLINK_WriteReg(R15 (PC), 0x200000CA)  returns 0x00 (0000ms, 5220ms total)
T3404 2379:819 JLINK_WriteReg(XPSR, 0x01000000)  returns 0x00 (0000ms, 5220ms total)
T3404 2379:819 JLINK_WriteReg(MSP, 0x20001000)  returns 0x00 (0000ms, 5220ms total)
T3404 2379:819 JLINK_WriteReg(PSP, 0x20001000)  returns 0x00 (0000ms, 5220ms total)
T3404 2379:819 JLINK_WriteReg(CFBP, 0x00000000)  returns 0x00 (0000ms, 5220ms total)
T3404 2379:819 JLINK_SetBPEx(Addr = 0x20000000, Type = 0xFFFFFFF2)  returns 0x00000009 (0000ms, 5220ms total)
T3404 2379:819 JLINK_Go() -- CPU_ReadMem(4 bytes @ 0xE0001000) (0003ms, 5223ms total)
T3404 2379:822 JLINK_IsHalted()  returns FALSE (0001ms, 5224ms total)
T3404 2379:830 JLINK_IsHalted() -- CPU_ReadMem(2 bytes @ 0x20000000)  returns TRUE (0003ms, 5226ms total)
T3404 2379:833 JLINK_ReadReg(R15 (PC))  returns 0x20000000 (0000ms, 5223ms total)
T3404 2379:833 JLINK_ClrBPEx(BPHandle = 0x00000009)  returns 0x00 (0000ms, 5223ms total)
T3404 2379:833 JLINK_ReadReg(R0)  returns 0x00000000 (0000ms, 5223ms total)
T3404 2379:833 JLINK_WriteReg(R0, 0x00004000)  returns 0x00 (0000ms, 5223ms total)
T3404 2379:833 JLINK_WriteReg(R1, 0x00001000)  returns 0x00 (0000ms, 5223ms total)
T3404 2379:834 JLINK_WriteReg(R2, 0x000000FF)  returns 0x00 (0000ms, 5224ms total)
T3404 2379:834 JLINK_WriteReg(R3, 0x00000000)  returns 0x00 (0000ms, 5224ms total)
T3404 2379:834 JLINK_WriteReg(R4, 0x00000000)  returns 0x00 (0000ms, 5224ms total)
T3404 2379:834 JLINK_WriteReg(R5, 0x00000000)  returns 0x00 (0000ms, 5224ms total)
T3404 2379:834 JLINK_WriteReg(R6, 0x00000000)  returns 0x00 (0000ms, 5224ms total)
T3404 2379:834 JLINK_WriteReg(R7, 0x00000000)  returns 0x00 (0000ms, 5224ms total)
T3404 2379:834 JLINK_WriteReg(R8, 0x00000000)  returns 0x00 (0000ms, 5224ms total)
T3404 2379:834 JLINK_WriteReg(R9, 0x20000438)  returns 0x00 (0000ms, 5224ms total)
T3404 2379:834 JLINK_WriteReg(R10, 0x00000000)  returns 0x00 (0000ms, 5224ms total)
T3404 2379:834 JLINK_WriteReg(R11, 0x00000000)  returns 0x00 (0000ms, 5224ms total)
T3404 2379:834 JLINK_WriteReg(R12, 0x00000000)  returns 0x00 (0000ms, 5224ms total)
T3404 2379:834 JLINK_WriteReg(R13 (SP), 0x20001000)  returns 0x00 (0000ms, 5224ms total)
T3404 2379:834 JLINK_WriteReg(R14, 0x20000001)  returns 0x00 (0000ms, 5224ms total)
T3404 2379:834 JLINK_WriteReg(R15 (PC), 0x20000074)  returns 0x00 (0000ms, 5224ms total)
T3404 2379:834 JLINK_WriteReg(XPSR, 0x01000000)  returns 0x00 (0000ms, 5224ms total)
T3404 2379:834 JLINK_WriteReg(MSP, 0x20001000)  returns 0x00 (0000ms, 5224ms total)
T3404 2379:834 JLINK_WriteReg(PSP, 0x20001000)  returns 0x00 (0000ms, 5224ms total)
T3404 2379:834 JLINK_WriteReg(CFBP, 0x00000000)  returns 0x00 (0000ms, 5224ms total)
T3404 2379:834 JLINK_SetBPEx(Addr = 0x20000000, Type = 0xFFFFFFF2)  returns 0x0000000A (0000ms, 5224ms total)
T3404 2379:834 JLINK_Go() -- CPU_ReadMem(4 bytes @ 0xE0001000) (0003ms, 5227ms total)
T3404 2379:838 JLINK_IsHalted() -- CPU_ReadMem(2 bytes @ 0x20000000)  returns TRUE (0003ms, 5231ms total)
T3404 2379:841 JLINK_ReadReg(R15 (PC))  returns 0x20000000 (0000ms, 5228ms total)
T3404 2379:841 JLINK_ClrBPEx(BPHandle = 0x0000000A)  returns 0x00 (0000ms, 5228ms total)
T3404 2379:841 JLINK_ReadReg(R0)  returns 0x00000001 (0000ms, 5228ms total)
T3404 2379:841 JLINK_WriteReg(R0, 0x00004000)  returns 0x00 (0000ms, 5228ms total)
T3404 2379:841 JLINK_WriteReg(R1, 0x00001000)  returns 0x00 (0000ms, 5228ms total)
T3404 2379:841 JLINK_WriteReg(R2, 0x000000FF)  returns 0x00 (0000ms, 5228ms total)
T3404 2379:841 JLINK_WriteReg(R3, 0x00000000)  returns 0x00 (0000ms, 5228ms total)
T3404 2379:841 JLINK_WriteReg(R4, 0x00000000)  returns 0x00 (0000ms, 5228ms total)
T3404 2379:841 JLINK_WriteReg(R5, 0x00000000)  returns 0x00 (0000ms, 5228ms total)
T3404 2379:841 JLINK_WriteReg(R6, 0x00000000)  returns 0x00 (0000ms, 5228ms total)
T3404 2379:841 JLINK_WriteReg(R7, 0x00000000)  returns 0x00 (0000ms, 5228ms total)
T3404 2379:841 JLINK_WriteReg(R8, 0x00000000)  returns 0x00 (0000ms, 5228ms total)
T3404 2379:841 JLINK_WriteReg(R9, 0x20000438)  returns 0x00 (0000ms, 5228ms total)
T3404 2379:841 JLINK_WriteReg(R10, 0x00000000)  returns 0x00 (0000ms, 5228ms total)
T3404 2379:841 JLINK_WriteReg(R11, 0x00000000)  returns 0x00 (0000ms, 5228ms total)
T3404 2379:841 JLINK_WriteReg(R12, 0x00000000)  returns 0x00 (0000ms, 5228ms total)
T3404 2379:841 JLINK_WriteReg(R13 (SP), 0x20001000)  returns 0x00 (0001ms, 5229ms total)
T3404 2379:842 JLINK_WriteReg(R14, 0x20000001)  returns 0x00 (0000ms, 5229ms total)
T3404 2379:842 JLINK_WriteReg(R15 (PC), 0x200000CA)  returns 0x00 (0000ms, 5229ms total)
T3404 2379:842 JLINK_WriteReg(XPSR, 0x01000000)  returns 0x00 (0000ms, 5229ms total)
T3404 2379:842 JLINK_WriteReg(MSP, 0x20001000)  returns 0x00 (0000ms, 5229ms total)
T3404 2379:842 JLINK_WriteReg(PSP, 0x20001000)  returns 0x00 (0000ms, 5229ms total)
T3404 2379:842 JLINK_WriteReg(CFBP, 0x00000000)  returns 0x00 (0000ms, 5229ms total)
T3404 2379:842 JLINK_SetBPEx(Addr = 0x20000000, Type = 0xFFFFFFF2)  returns 0x0000000B (0000ms, 5229ms total)
T3404 2379:842 JLINK_Go() -- CPU_ReadMem(4 bytes @ 0xE0001000) (0003ms, 5232ms total)
T3404 2379:845 JLINK_IsHalted()  returns FALSE (0001ms, 5233ms total)
T3404 2379:850 JLINK_IsHalted()  returns FALSE (0000ms, 5232ms total)
T3404 2379:852 JLINK_IsHalted() -- CPU_ReadMem(2 bytes @ 0x20000000)  returns TRUE (0004ms, 5236ms total)
T3404 2379:856 JLINK_ReadReg(R15 (PC))  returns 0x20000000 (0000ms, 5232ms total)
T3404 2379:856 JLINK_ClrBPEx(BPHandle = 0x0000000B)  returns 0x00 (0000ms, 5232ms total)
T3404 2379:856 JLINK_ReadReg(R0)  returns 0x00000000 (0000ms, 5232ms total)
T3404 2379:857 JLINK_WriteReg(R0, 0x00005000)  returns 0x00 (0000ms, 5232ms total)
T3404 2379:857 JLINK_WriteReg(R1, 0x00001000)  returns 0x00 (0000ms, 5232ms total)
T3404 2379:857 JLINK_WriteReg(R2, 0x000000FF)  returns 0x00 (0000ms, 5232ms total)
T3404 2379:857 JLINK_WriteReg(R3, 0x00000000)  returns 0x00 (0000ms, 5232ms total)
T3404 2379:857 JLINK_WriteReg(R4, 0x00000000)  returns 0x00 (0000ms, 5232ms total)
T3404 2379:857 JLINK_WriteReg(R5, 0x00000000)  returns 0x00 (0001ms, 5233ms total)
T3404 2379:858 JLINK_WriteReg(R6, 0x00000000)  returns 0x00 (0000ms, 5233ms total)
T3404 2379:858 JLINK_WriteReg(R7, 0x00000000)  returns 0x00 (0000ms, 5233ms total)
T3404 2379:858 JLINK_WriteReg(R8, 0x00000000)  returns 0x00 (0000ms, 5233ms total)
T3404 2379:858 JLINK_WriteReg(R9, 0x20000438)  returns 0x00 (0000ms, 5233ms total)
T3404 2379:858 JLINK_WriteReg(R10, 0x00000000)  returns 0x00 (0000ms, 5233ms total)
T3404 2379:858 JLINK_WriteReg(R11, 0x00000000)  returns 0x00 (0000ms, 5233ms total)
T3404 2379:858 JLINK_WriteReg(R12, 0x00000000)  returns 0x00 (0000ms, 5233ms total)
T3404 2379:858 JLINK_WriteReg(R13 (SP), 0x20001000)  returns 0x00 (0000ms, 5233ms total)
T3404 2379:858 JLINK_WriteReg(R14, 0x20000001)  returns 0x00 (0000ms, 5233ms total)
T3404 2379:858 JLINK_WriteReg(R15 (PC), 0x20000074)  returns 0x00 (0000ms, 5233ms total)
T3404 2379:858 JLINK_WriteReg(XPSR, 0x01000000)  returns 0x00 (0000ms, 5233ms total)
T3404 2379:858 JLINK_WriteReg(MSP, 0x20001000)  returns 0x00 (0000ms, 5233ms total)
T3404 2379:858 JLINK_WriteReg(PSP, 0x20001000)  returns 0x00 (0000ms, 5233ms total)
T3404 2379:858 JLINK_WriteReg(CFBP, 0x00000000)  returns 0x00 (0000ms, 5233ms total)
T3404 2379:858 JLINK_SetBPEx(Addr = 0x20000000, Type = 0xFFFFFFF2)  returns 0x0000000C (0000ms, 5233ms total)
T3404 2379:858 JLINK_Go() -- CPU_ReadMem(4 bytes @ 0xE0001000) (0004ms, 5237ms total)
T3404 2379:862 JLINK_IsHalted() -- CPU_ReadMem(2 bytes @ 0x20000000)  returns TRUE (0003ms, 5240ms total)
T3404 2379:865 JLINK_ReadReg(R15 (PC))  returns 0x20000000 (0000ms, 5237ms total)
T3404 2379:865 JLINK_ClrBPEx(BPHandle = 0x0000000C)  returns 0x00 (0000ms, 5237ms total)
T3404 2379:865 JLINK_ReadReg(R0)  returns 0x00000001 (0000ms, 5237ms total)
T3404 2379:865 JLINK_WriteReg(R0, 0x00005000)  returns 0x00 (0000ms, 5237ms total)
T3404 2379:865 JLINK_WriteReg(R1, 0x00001000)  returns 0x00 (0000ms, 5237ms total)
T3404 2379:865 JLINK_WriteReg(R2, 0x000000FF)  returns 0x00 (0000ms, 5237ms total)
T3404 2379:865 JLINK_WriteReg(R3, 0x00000000)  returns 0x00 (0000ms, 5237ms total)
T3404 2379:865 JLINK_WriteReg(R4, 0x00000000)  returns 0x00 (0000ms, 5237ms total)
T3404 2379:865 JLINK_WriteReg(R5, 0x00000000)  returns 0x00 (0000ms, 5237ms total)
T3404 2379:865 JLINK_WriteReg(R6, 0x00000000)  returns 0x00 (0000ms, 5237ms total)
T3404 2379:865 JLINK_WriteReg(R7, 0x00000000)  returns 0x00 (0000ms, 5237ms total)
T3404 2379:865 JLINK_WriteReg(R8, 0x00000000)  returns 0x00 (0001ms, 5238ms total)
T3404 2379:866 JLINK_WriteReg(R9, 0x20000438)  returns 0x00 (0000ms, 5238ms total)
T3404 2379:866 JLINK_WriteReg(R10, 0x00000000)  returns 0x00 (0000ms, 5238ms total)
T3404 2379:866 JLINK_WriteReg(R11, 0x00000000)  returns 0x00 (0000ms, 5238ms total)
T3404 2379:866 JLINK_WriteReg(R12, 0x00000000)  returns 0x00 (0000ms, 5238ms total)
T3404 2379:866 JLINK_WriteReg(R13 (SP), 0x20001000)  returns 0x00 (0000ms, 5238ms total)
T3404 2379:866 JLINK_WriteReg(R14, 0x20000001)  returns 0x00 (0000ms, 5238ms total)
T3404 2379:866 JLINK_WriteReg(R15 (PC), 0x200000CA)  returns 0x00 (0000ms, 5238ms total)
T3404 2379:866 JLINK_WriteReg(XPSR, 0x01000000)  returns 0x00 (0000ms, 5238ms total)
T3404 2379:866 JLINK_WriteReg(MSP, 0x20001000)  returns 0x00 (0000ms, 5238ms total)
T3404 2379:866 JLINK_WriteReg(PSP, 0x20001000)  returns 0x00 (0000ms, 5238ms total)
T3404 2379:866 JLINK_WriteReg(CFBP, 0x00000000)  returns 0x00 (0000ms, 5238ms total)
T3404 2379:866 JLINK_SetBPEx(Addr = 0x20000000, Type = 0xFFFFFFF2)  returns 0x0000000D (0000ms, 5238ms total)
T3404 2379:866 JLINK_Go() -- CPU_ReadMem(4 bytes @ 0xE0001000) (0003ms, 5241ms total)
T3404 2379:869 JLINK_IsHalted()  returns FALSE (0001ms, 5242ms total)
T3404 2379:879 JLINK_IsHalted() -- CPU_ReadMem(2 bytes @ 0x20000000)  returns TRUE (0003ms, 5244ms total)
T3404 2379:882 JLINK_ReadReg(R15 (PC))  returns 0x20000000 (0000ms, 5241ms total)
T3404 2379:882 JLINK_ClrBPEx(BPHandle = 0x0000000D)  returns 0x00 (0000ms, 5241ms total)
T3404 2379:882 JLINK_ReadReg(R0)  returns 0x00000000 (0000ms, 5241ms total)
T3404 2379:883 JLINK_WriteReg(R0, 0x00000001)  returns 0x00 (0000ms, 5241ms total)
T3404 2379:883 JLINK_WriteReg(R1, 0x00001000)  returns 0x00 (0000ms, 5241ms total)
T3404 2379:883 JLINK_WriteReg(R2, 0x000000FF)  returns 0x00 (0000ms, 5241ms total)
T3404 2379:883 JLINK_WriteReg(R3, 0x00000000)  returns 0x00 (0000ms, 5241ms total)
T3404 2379:883 JLINK_WriteReg(R4, 0x00000000)  returns 0x00 (0000ms, 5241ms total)
T3404 2379:883 JLINK_WriteReg(R5, 0x00000000)  returns 0x00 (0000ms, 5241ms total)
T3404 2379:883 JLINK_WriteReg(R6, 0x00000000)  returns 0x00 (0000ms, 5241ms total)
T3404 2379:883 JLINK_WriteReg(R7, 0x00000000)  returns 0x00 (0000ms, 5241ms total)
T3404 2379:883 JLINK_WriteReg(R8, 0x00000000)  returns 0x00 (0000ms, 5241ms total)
T3404 2379:883 JLINK_WriteReg(R9, 0x20000438)  returns 0x00 (0000ms, 5241ms total)
T3404 2379:883 JLINK_WriteReg(R10, 0x00000000)  returns 0x00 (0000ms, 5241ms total)
T3404 2379:883 JLINK_WriteReg(R11, 0x00000000)  returns 0x00 (0000ms, 5241ms total)
T3404 2379:883 JLINK_WriteReg(R12, 0x00000000)  returns 0x00 (0000ms, 5241ms total)
T3404 2379:883 JLINK_WriteReg(R13 (SP), 0x20001000)  returns 0x00 (0000ms, 5241ms total)
T3404 2379:883 JLINK_WriteReg(R14, 0x20000001)  returns 0x00 (0000ms, 5241ms total)
T3404 2379:883 JLINK_WriteReg(R15 (PC), 0x20000070)  returns 0x00 (0000ms, 5241ms total)
T3404 2379:883 JLINK_WriteReg(XPSR, 0x01000000)  returns 0x00 (0000ms, 5241ms total)
T3404 2379:883 JLINK_WriteReg(MSP, 0x20001000)  returns 0x00 (0000ms, 5241ms total)
T3404 2379:883 JLINK_WriteReg(PSP, 0x20001000)  returns 0x00 (0000ms, 5241ms total)
T3404 2379:883 JLINK_WriteReg(CFBP, 0x00000000)  returns 0x00 (0000ms, 5241ms total)
T3404 2379:883 JLINK_SetBPEx(Addr = 0x20000000, Type = 0xFFFFFFF2)  returns 0x0000000E (0000ms, 5241ms total)
T3404 2379:883 JLINK_Go() -- CPU_ReadMem(4 bytes @ 0xE0001000) (0004ms, 5245ms total)
T3404 2379:887 JLINK_IsHalted() -- CPU_ReadMem(2 bytes @ 0x20000000)  returns TRUE (0003ms, 5248ms total)
T3404 2379:890 JLINK_ReadReg(R15 (PC))  returns 0x20000000 (0000ms, 5245ms total)
T3404 2379:890 JLINK_ClrBPEx(BPHandle = 0x0000000E)  returns 0x00 (0000ms, 5245ms total)
T3404 2379:890 JLINK_ReadReg(R0)  returns 0x00000000 (0000ms, 5245ms total)
T3404 2379:949 JLINK_WriteMem(0x20000000, 0x0440 Bytes, ...) - Data: 00 BE 0A E0 0D 78 2D 06 68 40 08 24 40 00 00 D3 ... -- CPU_WriteMem(1088 bytes @ 0x20000000)  returns 0x440 (0004ms, 5249ms total)
T3404 2379:953 JLINK_WriteReg(R0, 0x00000000)  returns 0x00 (0000ms, 5249ms total)
T3404 2379:953 JLINK_WriteReg(R1, 0x00B71B00)  returns 0x00 (0000ms, 5249ms total)
T3404 2379:953 JLINK_WriteReg(R2, 0x00000002)  returns 0x00 (0000ms, 5249ms total)
T3404 2379:953 JLINK_WriteReg(R3, 0x00000000)  returns 0x00 (0000ms, 5249ms total)
T3404 2379:953 JLINK_WriteReg(R4, 0x00000000)  returns 0x00 (0000ms, 5249ms total)
T3404 2379:953 JLINK_WriteReg(R5, 0x00000000)  returns 0x00 (0000ms, 5249ms total)
T3404 2379:953 JLINK_WriteReg(R6, 0x00000000)  returns 0x00 (0000ms, 5249ms total)
T3404 2379:953 JLINK_WriteReg(R7, 0x00000000)  returns 0x00 (0000ms, 5249ms total)
T3404 2379:953 JLINK_WriteReg(R8, 0x00000000)  returns 0x00 (0000ms, 5249ms total)
T3404 2379:953 JLINK_WriteReg(R9, 0x20000438)  returns 0x00 (0000ms, 5249ms total)
T3404 2379:953 JLINK_WriteReg(R10, 0x00000000)  returns 0x00 (0000ms, 5249ms total)
T3404 2379:953 JLINK_WriteReg(R11, 0x00000000)  returns 0x00 (0000ms, 5249ms total)
T3404 2379:953 JLINK_WriteReg(R12, 0x00000000)  returns 0x00 (0000ms, 5249ms total)
T3404 2379:953 JLINK_WriteReg(R13 (SP), 0x20001000)  returns 0x00 (0000ms, 5249ms total)
T3404 2379:953 JLINK_WriteReg(R14, 0x20000001)  returns 0x00 (0000ms, 5249ms total)
T3404 2379:953 JLINK_WriteReg(R15 (PC), 0x20000020)  returns 0x00 (0000ms, 5249ms total)
T3404 2379:953 JLINK_WriteReg(XPSR, 0x01000000)  returns 0x00 (0000ms, 5249ms total)
T3404 2379:953 JLINK_WriteReg(MSP, 0x20001000)  returns 0x00 (0000ms, 5249ms total)
T3404 2379:953 JLINK_WriteReg(PSP, 0x20001000)  returns 0x00 (0001ms, 5250ms total)
T3404 2379:954 JLINK_WriteReg(CFBP, 0x00000000)  returns 0x00 (0000ms, 5250ms total)
T3404 2379:954 JLINK_SetBPEx(Addr = 0x20000000, Type = 0xFFFFFFF2) -- CPU_ReadMem(2 bytes @ 0x20000000)  returns 0x0000000F (0000ms, 5250ms total)
T3404 2379:954 JLINK_Go() -- CPU_WriteMem(2 bytes @ 0x20000000) -- CPU_ReadMem(4 bytes @ 0xE0001000) (0004ms, 5254ms total)
T3404 2379:958 JLINK_IsHalted() -- CPU_ReadMem(2 bytes @ 0x20000000)  returns TRUE (0003ms, 5257ms total)
T3404 2379:961 JLINK_ReadReg(R15 (PC))  returns 0x20000000 (0000ms, 5254ms total)
T3404 2379:961 JLINK_ClrBPEx(BPHandle = 0x0000000F)  returns 0x00 (0000ms, 5254ms total)
T3404 2379:961 JLINK_ReadReg(R0)  returns 0x00000000 (0000ms, 5254ms total)
T3404 2379:962 JLINK_WriteMem(0x20000468, 0x0200 Bytes, ...) - Data: 58 3F 02 20 DD 04 00 00 29 11 00 00 EB 04 00 00 ... -- CPU_WriteMem(512 bytes @ 0x20000468)  returns 0x200 (0002ms, 5256ms total)
T3404 2379:964 JLINK_WriteReg(R0, 0x00000000)  returns 0x00 (0000ms, 5256ms total)
T3404 2379:964 JLINK_WriteReg(R1, 0x00000200)  returns 0x00 (0000ms, 5256ms total)
T3404 2379:964 JLINK_WriteReg(R2, 0x20000468)  returns 0x00 (0000ms, 5256ms total)
T3404 2379:964 JLINK_WriteReg(R3, 0x00000000)  returns 0x00 (0000ms, 5256ms total)
T3404 2379:964 JLINK_WriteReg(R4, 0x00000000)  returns 0x00 (0000ms, 5256ms total)
T3404 2379:964 JLINK_WriteReg(R5, 0x00000000)  returns 0x00 (0000ms, 5256ms total)
T3404 2379:964 JLINK_WriteReg(R6, 0x00000000)  returns 0x00 (0000ms, 5256ms total)
T3404 2379:964 JLINK_WriteReg(R7, 0x00000000)  returns 0x00 (0000ms, 5256ms total)
T3404 2379:964 JLINK_WriteReg(R8, 0x00000000)  returns 0x00 (0000ms, 5256ms total)
T3404 2379:964 JLINK_WriteReg(R9, 0x20000438)  returns 0x00 (0000ms, 5256ms total)
T3404 2379:964 JLINK_WriteReg(R10, 0x00000000)  returns 0x00 (0000ms, 5256ms total)
T3404 2379:964 JLINK_WriteReg(R11, 0x00000000)  returns 0x00 (0000ms, 5256ms total)
T3404 2379:964 JLINK_WriteReg(R12, 0x00000000)  returns 0x00 (0000ms, 5256ms total)
T3404 2379:964 JLINK_WriteReg(R13 (SP), 0x20001000)  returns 0x00 (0000ms, 5256ms total)
T3404 2379:964 JLINK_WriteReg(R14, 0x20000001)  returns 0x00 (0000ms, 5256ms total)
T3404 2379:964 JLINK_WriteReg(R15 (PC), 0x200000DE)  returns 0x00 (0000ms, 5256ms total)
T3404 2379:964 JLINK_WriteReg(XPSR, 0x01000000)  returns 0x00 (0000ms, 5256ms total)
T3404 2379:964 JLINK_WriteReg(MSP, 0x20001000)  returns 0x00 (0000ms, 5256ms total)
T3404 2379:964 JLINK_WriteReg(PSP, 0x20001000)  returns 0x00 (0000ms, 5256ms total)
T3404 2379:964 JLINK_WriteReg(CFBP, 0x00000000)  returns 0x00 (0000ms, 5256ms total)
T3404 2379:964 JLINK_SetBPEx(Addr = 0x20000000, Type = 0xFFFFFFF2)  returns 0x00000010 (0000ms, 5256ms total)
T3404 2379:964 JLINK_Go() -- CPU_ReadMem(4 bytes @ 0xE0001000) (0003ms, 5259ms total)
T3404 2379:967 JLINK_IsHalted()  returns FALSE (0001ms, 5260ms total)
T3404 2379:975 JLINK_IsHalted() -- CPU_ReadMem(2 bytes @ 0x20000000)  returns TRUE (0005ms, 5264ms total)
T3404 2379:980 JLINK_ReadReg(R15 (PC))  returns 0x20000000 (0000ms, 5259ms total)
T3404 2379:980 JLINK_ClrBPEx(BPHandle = 0x00000010)  returns 0x00 (0000ms, 5259ms total)
T3404 2379:980 JLINK_ReadReg(R0)  returns 0x00000000 (0000ms, 5259ms total)
T3404 2379:980 JLINK_WriteMem(0x20000468, 0x0200 Bytes, ...) - Data: FB 04 00 00 FB 04 00 00 FB 04 00 00 FB 04 00 00 ... -- CPU_WriteMem(512 bytes @ 0x20000468)  returns 0x200 (0003ms, 5262ms total)
T3404 2379:983 JLINK_WriteReg(R0, 0x00000200)  returns 0x00 (0000ms, 5262ms total)
T3404 2379:983 JLINK_WriteReg(R1, 0x00000200)  returns 0x00 (0000ms, 5262ms total)
T3404 2379:983 JLINK_WriteReg(R2, 0x20000468)  returns 0x00 (0000ms, 5262ms total)
T3404 2379:983 JLINK_WriteReg(R3, 0x00000000)  returns 0x00 (0000ms, 5262ms total)
T3404 2379:983 JLINK_WriteReg(R4, 0x00000000)  returns 0x00 (0000ms, 5262ms total)
T3404 2379:983 JLINK_WriteReg(R5, 0x00000000)  returns 0x00 (0000ms, 5262ms total)
T3404 2379:983 JLINK_WriteReg(R6, 0x00000000)  returns 0x00 (0000ms, 5262ms total)
T3404 2379:983 JLINK_WriteReg(R7, 0x00000000)  returns 0x00 (0000ms, 5262ms total)
T3404 2379:983 JLINK_WriteReg(R8, 0x00000000)  returns 0x00 (0000ms, 5262ms total)
T3404 2379:983 JLINK_WriteReg(R9, 0x20000438)  returns 0x00 (0000ms, 5262ms total)
T3404 2379:983 JLINK_WriteReg(R10, 0x00000000)  returns 0x00 (0000ms, 5262ms total)
T3404 2379:983 JLINK_WriteReg(R11, 0x00000000)  returns 0x00 (0000ms, 5262ms total)
T3404 2379:983 JLINK_WriteReg(R12, 0x00000000)  returns 0x00 (0000ms, 5262ms total)
T3404 2379:983 JLINK_WriteReg(R13 (SP), 0x20001000)  returns 0x00 (0000ms, 5262ms total)
T3404 2379:983 JLINK_WriteReg(R14, 0x20000001)  returns 0x00 (0000ms, 5262ms total)
T3404 2379:983 JLINK_WriteReg(R15 (PC), 0x200000DE)  returns 0x00 (0000ms, 5262ms total)
T3404 2379:983 JLINK_WriteReg(XPSR, 0x01000000)  returns 0x00 (0000ms, 5262ms total)
T3404 2379:983 JLINK_WriteReg(MSP, 0x20001000)  returns 0x00 (0000ms, 5262ms total)
T3404 2379:983 JLINK_WriteReg(PSP, 0x20001000)  returns 0x00 (0000ms, 5262ms total)
T3404 2379:983 JLINK_WriteReg(CFBP, 0x00000000)  returns 0x00 (0000ms, 5262ms total)
T3404 2379:983 JLINK_SetBPEx(Addr = 0x20000000, Type = 0xFFFFFFF2)  returns 0x00000011 (0000ms, 5262ms total)
T3404 2379:983 JLINK_Go() -- CPU_ReadMem(4 bytes @ 0xE0001000) (0004ms, 5266ms total)
T3404 2379:987 JLINK_IsHalted()  returns FALSE (0000ms, 5266ms total)
T3404 2379:991 JLINK_IsHalted()  returns FALSE (0000ms, 5266ms total)
T3404 2379:993 JLINK_IsHalted() -- CPU_ReadMem(2 bytes @ 0x20000000)  returns TRUE (0004ms, 5270ms total)
T3404 2379:997 JLINK_ReadReg(R15 (PC))  returns 0x20000000 (0000ms, 5266ms total)
T3404 2379:997 JLINK_ClrBPEx(BPHandle = 0x00000011)  returns 0x00 (0000ms, 5266ms total)
T3404 2379:997 JLINK_ReadReg(R0)  returns 0x00000000 (0000ms, 5266ms total)
T3404 2380:000 JLINK_WriteMem(0x20000468, 0x0200 Bytes, ...) - Data: FF FF FF FF FF FF FF FF FF FF FF FF FE FF FF FF ... -- CPU_WriteMem(512 bytes @ 0x20000468)  returns 0x200 (0002ms, 5268ms total)
T3404 2380:002 JLINK_WriteReg(R0, 0x00000400)  returns 0x00 (0000ms, 5268ms total)
T3404 2380:002 JLINK_WriteReg(R1, 0x00000200)  returns 0x00 (0000ms, 5268ms total)
T3404 2380:002 JLINK_WriteReg(R2, 0x20000468)  returns 0x00 (0000ms, 5268ms total)
T3404 2380:002 JLINK_WriteReg(R3, 0x00000000)  returns 0x00 (0000ms, 5268ms total)
T3404 2380:002 JLINK_WriteReg(R4, 0x00000000)  returns 0x00 (0000ms, 5268ms total)
T3404 2380:002 JLINK_WriteReg(R5, 0x00000000)  returns 0x00 (0000ms, 5268ms total)
